"Freq [GHz]","re(Z(1,1)) [] - hsub='5mil'","re(Z(1,1)) [] - hsub='10mil'","re(Z(1,1)) [] - hsub='15mil'","re(Z(1,1)) [] - hsub='31mil'","re(Z(1,1)) [] - hsub='62mil'","im(Z(1,1)) [] - hsub='5mil'","im(Z(1,1)) [] - hsub='10mil'","im(Z(1,1)) [] - hsub='15mil'","im(Z(1,1)) [] - hsub='31mil'","im(Z(1,1)) [] - hsub='62mil'"
1.8,0.257523752173934,0.83120914207496,0.310979995673245,0.356948434480841,0.652690410177626,12.69930501831,20.238740305439,25.1895125089649,36.7237352822586,48.6883938744794
1.805,0.246261332607249,0.803641075341728,0.309126137850211,0.335362175097918,0.667686737599685,12.7295762850484,20.3810658515103,25.3682655855775,37.0205765767672,48.8245396264929
1.81,0.235171797238348,0.776601709919798,0.307317728913235,0.314731039281003,0.684012259447721,12.7595500164218,20.5243021044951,25.5495542287852,37.3205268954174,48.9667492069143
1.815,0.224301809687091,0.750097484600113,0.305553715867289,0.295095014340124,0.701711651612795,12.7892038467103,20.6684693557548,25.7334417733907,37.6236464689316,49.1154631523423
1.82,0.213703241867249,0.72413505824994,0.303833155657603,0.276496941112995,0.720831202222972,12.8185157429938,20.8135889386948,25.9199933645837,37.9299977290375,49.2711595337935
1.825,0.203433662446904,0.698721324484912,0.302155243854484,0.258982842958398,0.741418668915252,12.8474643891156,20.959683298218,26.1092760036397,38.2396454637009,49.4343575626573
1.83,0.193556848475559,0.673863427558997,0.300519347039512,0.242602304571971,0.763523078663276,12.8760296559479,21.1067760664048,26.3013585934807,38.55265699474,49.6056215690157
1.835,0.184143314124531,0.649568779611332,0.298925039292179,0.22740890963902,0.787194456931802,12.9041931720058,21.2548921451229,26.4963119838922,38.8691023829375,49.7855653908147
1.84,0.175270847766228,0.6258450794294,0.297372143215304,0.21346074819163,0.812483470229917,12.931939009858,21.4040577963703,26.6942090161627,39.1890546672242,49.9748572156697
1.845,0.167025045211012,0.602700332912291,0.295860775981122,0.200821006807708,0.839440962918274,12.9592545050229,21.5543007412626,26.8951245668769,39.5125901464245,50.1742249203742
1.85,0.159499822721481,0.580142875446132,0.294391400925973,0.189558657573252,0.868117365308441,12.9861312249715,21.7056502687065,27.0991355905543,39.8397887146053,50.384461956329
1.855,0.15279788833272,0.55818139643725,0.292964885273173,0.179749265147933,0.898561945571209,13.0125661062734,21.8581373549495,27.3063211607851,40.1707342644719,50.6064338319349
1.86,0.147031143943209,0.536824966289354,0.291582564618136,0.171475935470617,0.930821872640569,13.0385627775629,22.0117947953703,27.5167625094616,40.5055151778387,50.841085245237
1.865,0.142320983563183,0.516083066157773,0.290246314870394,0.164830434789378,0.964941051048301,13.0641330845174,22.1666573500783,27.7305430636544,40.8442249283875,51.089447921411
1.87,0.138798445042344,0.495965620871607,0.288958632411478,0.159914513995987,1.0009586813277,13.089298830005,22.3227619051311,27.9477484796152,41.1869628303577,51.3526492095613
1.875,0.136604163676635,0.476483035482749,0.287722723297648,0.156841480908057,1.03890749118439,13.1140937374648,22.480147651455,28.1684666733252,41.5338349783508,51.6319214910946
1.88,0.135888066595968,0.457646235983036,0.2865426024118,0.155738072388462,1.07881157295285,13.138565637833,22.6388562838932,28.3927878469242,41.8849554393392,51.9286124467617
1.885,0.136808737251198,0.439466714830887,0.285423203549915,0.156746689196589,1.12068375189698,13.1627788692766,22.7989322231903,28.6208045102738,42.2404477800395,52.2441962201616
1.89,0.139532370411632,0.421956582049093,0.284370501513507,0.160028069270764,1.16452239770277,13.1868168639799,22.960422864193,28.8526114968057,42.6004470436311,52.5802855005262
1.895,0.144231230956162,0.405128622803285,0.283391647372777,0.165764489482215,1.21030757821265,13.2107848766538,23.1233788541012,29.0883059726979,42.9651023331132,52.9386445249547
1.9,0.151081525888595,0.388996362550018,0.282495118162333,0.174163600882649,1.25799644041396,13.2348127848976,23.2878544052645,29.327987438298,43.3345802198481,53.321202967306
1.905,0.160260600354323,0.373574141065339,0.281690882376505,0.185463015957644,1.30751768957691,13.2590578619706,23.4539076478202,29.5717577205722,43.7090692829609,53.7300706343405
1.91,0.171943377307216,0.358877196937033,0.280990582739292,0.199935773906347,1.3587650243432,13.283707388451,23.6216010284236,29.8197209552033,44.0887862098293,54.1675528251103
1.915,0.186297979492164,0.344921764441712,0.280407737839441,0.217896802597184,1.41158937523168,13.3089809319925,23.7910017624863,30.0719835567854,44.4739840667109,54.6361661216006
1.92,0.203480504254737,0.331725185149155,0.279957964339032,0.239710456551575,1.46578978912776,13.3351320863886,23.9621823487429,30.3286541753653,44.8649636058664,55.1386542604425
1.925,0.223628968720798,0.319306037122137,0.279659221586095,0.265799107039059,1.52110280678579,13.3624494261997,24.135221156692,30.5898436373605,45.2620888457141,55.6780035787991
1.93,0.246856506568013,0.307684285241799,0.27953208058556,0.296652533685544,1.5771901999062,13.3912564065424,24.3102030995574,30.8556648686351,45.6658086907144,56.2574573222141
1.935,0.273243977760015,0.29688145702525,0.279600019407066,0.332837407612523,1.63362497699491,13.4219099259624,24.4872204080163,31.1262327972374,46.0766871083559,56.8805278364746
1.94,0.302832246585093,0.286920849363929,0.279889747229437,0.375005264923621,1.68987564406994,13.4547972812296,24.6663735231462,31.4016642329913,46.495445418766,57.5510053259315
1.945,0.335614485206442,0.27782777297126,0.280431559339137,0.423895687781559,1.7452888323621,13.4903312841796,24.8477721310396,31.6820777207867,46.9230216228476,58.2729614327646
1.95,0.371528959959637,0.269629843073706,0.281259725506577,0.480328304884527,1.799070600087,13.5289433888764,25.0315363665264,31.9675933640231,47.3606533348834,59.0507453609661
1.955,0.410452842321986,0.262357327142307,0.282412914259258,0.545171612005955,1.85026700416986,13.5710747958226,25.2177982197308,32.2583326142279,47.8099924040959,59.8889696232537
1.96,0.452197639458924,0.256043563408177,0.283934655643376,0.619266765600856,1.89774495077032,13.6171656570366,25.4067031871354,32.5544180223853,48.2732594557494,60.7924817223402
1.965,0.496506843298723,0.250725467773669,0.285873845113995,0.703268015738774,1.94017490527818,13.6676426929679,25.5984122189588,32.8559729469741,48.7534420619745,61.76631719507
1.97,0.543056337197732,0.246444151846244,0.288285291203688,0.797336159989589,1.976017808833,13.7229057329459,25.793104027633,33.1631212131133,49.2545233510568,62.8156284734306
1.975,0.591457966489283,0.243245681640358,0.291230309584048,0.900589497341057,2.00351953944934,13.783313881226,25.9909778389397,33.4759867165527,49.781682531327,63.9455830059445
1.98,0.64126647446346,0.241182015659908,0.294777366037867,1.01019732489347,2.02071748358557,13.8491721618252,26.19225668918,33.7946929655129,50.3413073244843,65.1612231377851
1.985,0.691989742029879,0.240312173506938,0.299002770687126,1.12005915957189,2.02546522234567,13.9207195778145,26.3971914003644,34.1193625525758,50.9404709276459,66.4672795331243
1.99,0.743101973854555,0.240703703193567,0.303991425554168,1.21930050244581,2.01548289062194,13.9981195106058,26.6060654032457,34.450116547941,51.5852827777743,67.8679296858964
1.995,0.794059182845397,0.242434538895211,0.309837627147446,1.29153871989481,1.98844223179288,14.0814532695957,26.8192006285056,34.7870738044048,52.2774898423345,69.3664936495266
2,0.844316079842482,0.245595373845068,0.316645925232925,1.31690706857466,1.94209637765746,14.1707173860772,27.0369647544053,35.1303501633718,53.0095976023075,70.9650609663751
2.005,0.893343314431398,0.250292719717702,0.324532038245305,1.27881567122953,1.87446435239846,14.2658249490432,27.2597801917429,35.4800575500878,53.7612618485167,72.6640464160724
2.01,0.94064396289698,0.256652890707728,0.333623824874473,1.17393721053045,1.78407840607232,14.3666109410183,27.4881353142142,35.8363029450857,54.5020864537318,74.4616781676604
2.015,0.985768230042315,0.26482724763382,0.344062310186993,1.01802895311569,1.67029748702864,14.4728411948216,27.7225986193242,36.1991872175669,55.2030152762396,76.3534306514958
2.02,1.02832551272553,0.274999180567071,0.356002763165568,0.840535853990684,1.53368134887895,14.5842243027453,27.9638367543568,36.5688038051306,55.8493988323631,78.3314261191287
2.025,1.06799323667908,0.287393522882489,0.369615820709814,0.671358164955034,1.37640608629226,14.7004256048292,28.2126376977925,36.9452372229116,56.4451519300281,80.3838430746157
2.03,1.10452218504371,0.302289416250042,0.385088650884229,0.530538525543514,1.20268322407667,14.8210822841362,28.4699409016923,37.3285613838466,57.0064195828699,82.4943854301267
2.035,1.13773834427261,0.32003815302868,0.402626145447673,0.426268686546702,1.01912229669508,14.9458186073417,28.7368769576576,37.7188377104884,57.552282107293,84.6418813459911
2.04,1.16754156262696,0.341088325563811,0.422452128383534,0.358360759511794,0.834954907234874,15.0742604548575,29.0148204800507,38.1161130175945,58.0988413904092,86.8000923672216
2.045,1.19390152127476,0.366021912727491,0.444810563184808,0.322575381373234,0.662023039466177,15.2060484602598,29.3054616200779,38.5204171437089,58.6575112587037,88.9378181933713
2.05,1.21685164470863,0.395607093819013,0.469966736954542,0.313600779584574,0.514434674130475,15.3408492924639,29.610904289859,38.9317603092284,59.2356406307993,91.0193767238446
2.055,1.2364816259627,0.43087726492886,0.49820839386952,0.32653861947255,0.407814619986484,15.4783648350139,29.9338033919919,39.3501301781389,59.8377901086057,93.0055200711829
2.06,1.25292922368907,0.473252213727806,0.529846784146521,0.357431204822534,0.358133735074613,15.6183392197689,30.2775601673591,39.7754886008777,60.466877835662,94.8548134470921
2.065,1.26637191979853,0.524729199899315,0.565217587274262,0.403319875698439,0.380183366052081,15.7605638401406,30.6466060552804,40.2077680168277,61.1249994348589,96.5254552956669
2.07,1.27701892761849,0.588193976021182,0.604681659877757,0.462125874502965,0.485860286269197,15.9048805936732,31.0468245852917,40.6468674970371,61.8139612111876,97.9774560229087
2.075,1.28510392981339,0.667945772072775,0.648625549146891,0.532493231595883,0.682515287183676,16.0511836846597,31.4861940335563,41.0926484111669,62.535617415365,99.1750244768873
2.08,1.29087881782861,0.77062147124897,0.697461702309572,0.613649493264384,0.971664228624247,16.1994203597972,31.9757925234756,41.5449297077654,63.2920908938486,100.088945781788
2.085,1.2946086113595,0.906904311861332,0.751628291255633,0.705301376270117,1.34833713587234,16.3495909621557,32.5314132968465,42.0034828041573,64.0859334595988,100.698686343837
2.09,1.2965676642569,1.09487112038789,0.811588559295996,0.807567235133205,1.80124053483479,16.5017486808893,33.1762267230119,42.4680260919876,64.9202637441468,100.993950383183
2.095,1.29703721603858,1.36701586444112,0.87782958447445,0.920943921841004,2.31374934302366,16.6559993560289,33.9452334764272,42.9382190772873,65.798908710647,100.975453046304
2.1,1.29630432735615,1.78624775973007,0.950860341278931,1.04630600484955,2.86557055343964,16.8125016783283,34.892551850255,43.4136561903943,66.7265693753422,100.654772074747
2.105,1.29466224413925,2.48603579734778,1.03120893066881,1.18493777595115,3.43478445428349,16.9714681112742,36.1013559131812,43.8938603217271,67.7090302951175,100.053278439008
2.11,1.29241227000101,3.78238176565884,1.11941883790349,1.33860221093572,3.99991103034849,17.1331668628258,37.6816890528366,44.3782761648139,68.7534353894062,99.2002938470218
2.115,1.28986729307805,6.50757675501037,1.21604406986315,1.5096562580437,4.54168149225876,17.2979252545298,39.6203904326883,44.8662634785972,69.8686599227999,98.1307403074815
2.12,1.28735721861292,12.6753441825951,1.32164301982519,1.70122946472339,5.0442977333472,17.4661348819409,40.4300272999566,45.3570904171587,71.0658213059328,96.8826036398669
2.125,1.28523671488163,20.4896383578695,1.43677090975688,1.91749494621476,5.4960958441695,17.6382590405685,32.3393966819835,45.8499271167019,72.358992632762,95.4945195525945
2.13,1.28389590930231,14.3940230356025,1.56197067018292,2.16408166920467,5.8896519285935,17.8148430160453,21.7498421654715,46.3438397765682,73.7662179504038,94.003720791037
2.135,1.28377501015398,7.08910515209492,1.69776213794755,2.44871192240798,6.22145136212,17.996528019768,21.8584597686431,46.8377855223695,75.3109871475063,92.4444842538658
2.14,1.2853843376981,3.91238812292701,1.84462948527691,2.78221158288169,6.49127774565289,18.1840698110702,24.0319248490445,47.3306083934611,77.0244299355707,90.8471170774209
2.145,1.28933202735229,2.51491870345126,2.00300684207249,3.18016253459071,6.70147252763541,18.3783634099314,25.8563611646467,47.821036851496,78.9486695647657,89.2374416668834
2.15,1.29636288712352,1.82447642046052,2.17326213975424,3.66571085539518,6.85618591896468,18.5804758032694,27.2545032043733,48.3076832582124,81.1421126531125,87.6366908148623
2.155,1.30741384470281,1.45016382874934,2.35567929113744,4.27456263027351,6.96069995786608,18.7916892197068,28.3599992605817,48.7890458142566,83.6881015660031,86.0617043855821
2.16,1.32369462149175,1.23468237114039,2.5504389277338,5.06437297718635,7.02086687464615,19.0135584179338,29.2758697656185,49.263513480828,86.7096787402231,84.5253214853225
2.165,1.34680764823429,1.10708330337714,2.75759804301294,6.13360692366591,7.04267637659178,19.2479864703647,30.0688178720298,49.7293744152454,90.3960608347212,83.0368777348308
2.17,1.37893049929664,1.03223685481751,2.97706903497987,7.66267838774255,7.03194581203996,19.4973245039055,30.7822465722496,50.1848284322682,95.0529487410649,81.6027384483216
2.175,1.42310050227015,0.991541528220087,3.20859879871631,10.0135337117397,6.99411634228479,19.7645010013277,31.4457495958883,50.6280039469351,101.204750255973,80.2268197832592
2.18,1.4836709361166,0.974823612155925,3.45174868093636,14.0057601569632,6.93413403998336,20.0531832101085,32.0808761465066,51.0569797540207,109.817535477986,78.9110682241843
2.185,1.56706373141694,0.976713630367264,3.70587626233555,21.8356801705822,6.85639490429455,20.3679601529445,32.7046412425794,51.4698118477676,122.805700823893,77.6558829271981
2.19,1.68304949785888,0.995040307786967,3.97012006441812,41.0019797634913,6.76473519778447,20.7144942071547,33.3318038402277,51.864565280047,143.884260889759,76.460475482296
2.195,1.84699038751064,1.03030244485584,4.24338836767775,105.68823821789,6.66245189146641,21.0994595224372,33.9765137576625,52.2393507967563,170.043767375792,75.3231681527598
2.2,2.08387082470745,1.08591398469204,4.52435335809485,218.671619731055,6.55234149535567,21.5297013227509,34.6536812966577,52.5923656882034,28.1351271626193,74.2416354326417
2.205,2.43561008843394,1.16927742016313,4.81145177001357,68.6069601159121,6.43674869438871,22.0088919357875,35.3802762709676,52.9219379537046,-41.5021978394667,73.2130956095907
2.21,2.97380402147063,1.29408288952889,5.10289304979938,22.4092586959392,6.31761881307301,22.5264409837288,36.176622877601,53.2265725354234,-3.66248606919963,72.2344595869759
2.215,3.81730793439992,1.48473352585,5.39667581668909,10.2800489185629,6.1965501664459,23.0231554043967,37.0674670764778,53.5049980504566,18.89777742312,71.3024440055461
2.22,5.12738429451043,1.78464402288223,5.69061304462673,5.94488924051598,6.07484387273966,23.2951487040417,38.0817550411275,53.7562121773588,32.3568737432258,70.4136550640827
2.225,6.9254506957913,2.27136748706753,5.9823659431466,4.08832285210052,5.95354979151719,22.8128195227901,39.2475447349144,53.979523669719,41.2874291980334,69.5646486052716
2.23,8.43563546422281,3.08161301351496,6.26948600117315,3.221487574169,5.83350800285879,20.8901082676376,40.5712955912855,54.1745889086339,47.7509147244546,68.7519711531949
2.235,8.1383285304186,4.43894527419504,6.54946411226362,2.81543682093125,5.7153857429705,18.2171395087274,41.9735775013776,54.3414409938976,52.7526669266752,67.9721857457938
2.24,6.34159831678289,6.61993493621205,6.81978517063594,2.64906412796134,5.59971003022291,16.7062956544817,43.1348287643601,54.4805096236517,56.8324722383193,67.2218856413372
2.245,4.58520462213768,9.64508616772957,7.07798606675247,2.61865014106768,5.48689640898154,16.551060995158,43.3137916909068,54.5926304205732,60.3049550786978,66.4976983078452
2.25,3.3803604022048,12.6245388827093,7.3217146703332,2.67130904262495,5.37727434965699,16.9934035426211,41.7287975636152,54.6790429070823,63.3666346169237,65.7962815286439
2.255,2.61892968862943,14.0728307548101,7.54878720984248,2.77844750270287,5.27110990410159,17.5874065828567,38.8657013920224,54.7413769723087,66.1479748780084,65.1143129669519
2.26,2.13545059842582,13.7490220668902,7.75724146773087,2.92407279130629,5.16862624958702,18.1795682369529,36.2994043454767,54.7816283552828,68.7407142082123,64.4484741146563
2.265,1.81991786189966,12.6306212070376,7.94538341679872,3.09924725727256,5.07002277994661,18.7314127300332,34.8096964588368,54.8021243300872,71.2132404814602,63.7954291904185
2.27,1.60811156656476,11.5021131331459,8.11182530966681,3.29933063960681,4.97549343309339,19.2405704770564,34.221110894964,54.805481358066,73.6198450929565,63.1517992348288
2.275,1.46296534485109,10.6509845666409,8.25551376470296,3.52260205586195,4.88524499200307,19.7142308597261,34.1663415433163,54.7945569171206,76.0067278755757,62.5141313604889
2.28,1.3626385980272,10.1281812736399,8.37574701643575,3.76964017780548,4.79951617297186,20.1609921794954,34.384646577616,54.7723979919823,78.4162811129686,61.8788628378657
2.285,1.29390540400805,9.92798976710639,8.47218115668548,4.04319175353148,4.71859843345489,20.5886235444645,34.7178889796898,54.7421887958663,80.8905503343824,61.2422794187434
2.29,1.2485598796237,10.0573396626802,8.54482582437938,4.3484414440208,4.64285960783274,21.0036606251921,35.0502417707137,54.7072001982738,83.474485553266,60.6004670026678
2.295,1.22143078074861,10.5569527710052,8.59403035485713,4.69372192845565,4.57277173426757,21.4115293747201,35.2389463780364,54.6707430803925,86.2195093739152,59.9492554214548
2.3,1.20925669445578,11.4769970657829,8.62046183443016,5.09183553985941,4.50894479847146,21.8167851110236,35.0016264302493,54.6361274674754,89.1879903857653,59.2841527340061
2.305,1.21003252496627,12.6491319805211,8.62507680080253,5.56235935350698,4.45216863221982,22.2233442066125,33.7183656012969,54.6066288437397,92.4594405340922,58.6002679671608
2.31,1.22262255450749,12.7568569371605,8.60908847969666,6.13567838403243,4.40346592536361,22.6346794378734,30.6517512912201,54.5854625881203,96.1397474736136,57.8922196832372
2.315,1.24653008470415,9.40987540939348,8.57393146291244,6.86026137813348,4.3641603266591,23.0539791300356,27.7549335971707,54.5757670226464,100.375731730714,57.154027072537
2.32,1.28176328923046,5.05955898045458,8.52122563498306,7.81641071915446,4.3359650483387,23.4842779612231,28.6231994527305,54.5805951747707,105.379288184838,56.378979426766
2.325,1.32876373744272,2.91292593380645,8.45274097352493,9.14385165540076,4.32109944096915,23.9285682817213,31.2079811141847,54.6029150454224,111.469491649832,55.5594788127981
2.33,1.38837918052926,2.22893603019081,8.37036461402826,11.1013863941736,4.32244395142123,24.3899000220966,33.4994198326564,54.6456179596617,119.150090981595,54.6868495049733
2.335,1.46187127381658,2.09500510043612,8.27607131384993,14.2085367958118,4.34374814477498,24.8714763618927,35.2901669029008,54.7115344606261,129.26058776603,53.7511062350442
2.34,1.55095494053353,2.14537100747077,8.1718981995983,19.6244383042568,4.38991271162133,25.3767518443509,36.745616056403,54.8034571865857,143.287261313157,52.7406716150314
2.345,1.65787079039721,2.25518618716365,8.05992445890396,30.3306219637501,4.467375596505,25.9095397377196,38.0075705748099,54.9241702372534,164.011453301112,51.642031319296
2.35,1.78549655721853,2.38316279126691,7.94225645840295,55.6265989859239,4.58464612293588,26.4741362805634,39.1667193719892,55.0764846790233,196.468602463664,50.439314147917
