"Freq [GHz]","re(Z(1,1)) []","im(Z(1,1)) []"
7.9,13.6792522726496,59.1634793914762
7.9084,13.3990753110799,59.6424227747572
7.9168,13.1243952249094,60.1171823057462
7.9252,12.8550989845418,60.5878524251291
7.9336,12.5910766396568,61.05452706505
7.942,12.3322212328419,61.5172997113367
7.9504,12.0784287169991,61.9762634677336
7.9588,11.8295978764253,62.4315111223055
7.9672,11.5856302514769,62.8831352161887
7.9756,11.3464300667388,63.3312281148851
7.984,11.1119041626259,63.7758820823108
7.9924,10.8819619303572,64.2171893578309
8.0008,10.6565152502527,64.6552422365366
8.0092,10.4354784333136,65.0901331530389
8.0176,10.2187681660562,65.521954769085
8.026,10.0063034585847,65.950800065326
8.0344,9.79800559589769,66.3767624376
8.0428,9.59379809243639,66.7999357981263
8.0512,9.39360664989885,67.2204146820452
8.0596,9.19735911835649,67.638294359778
8.068,9.00498546072757,68.0536709557301
8.0764,8.81641772067934,68.4666415739095
8.0848,8.63158999404937,68.8773044310882
8.0932,8.45043840389902,69.2857589982017
8.1016,8.27290107933408,69.6921061507447
8.11,8.09891813825479,70.096448329006
8.1184,7.928431674226,70.4988897090669
8.1268,7.76138574769013,70.8995363855895
8.1352,7.597726381783,71.2984965675261
8.1436,7.43740156305267,71.695880788005
8.152,7.28036124742793,72.091802129787
8.1604,7.12655737183505,72.4863764678355
8.1688,6.97594387192211,72.8797227307248
8.1772,6.82847670641596,73.2719631827996
8.1856,6.68411388871607,73.6632237292254
8.194,6.54281552641692,74.0536342463208
8.2024,6.40454386955337,74.4433289398416
8.2108,6.26926336847913,74.8324467342195
8.2192,6.1369407424256,75.2211316961175
8.2276,6.00754505994294,75.6095334960911
8.236,5.88104783260802,75.9978079126208
8.2444,5.757423123594,76.3861173833324
8.2528,5.63664767294359,76.7746316088537
8.2612,5.51870104167421,77.1635282154799
8.2696,5.40356577718186,77.5529934836589
8.278,5.2912276028067,77.9432231502687
8.2864,5.18167563488941,78.3344232937851
8.2948,5.07490263120186,78.7268113127255
8.3032,4.97090527528832,79.120617009274
8.3116,4.86968450203328,79.5160837917447
8.32,4.77124587070051,79.9134700116063
8.3284,4.67559999279905,80.3130504531962
8.3368,4.58276302346684,80.7151179971001
8.3452,4.49275722666915,81.1199854815099
8.3536,4.40561162645441,81.5279877898383
8.362,4.32136275886711,81.9394841975604
8.3704,4.24005554199171,82.3548610168447
8.3788,4.16174428511518,82.7745345842095
8.3872,4.08649386231188,83.1989546444442
8.3956,4.01438108107673,83.6286081936528
8.404,3.94549628322757,84.0640238558953
8.4124,3.8799452235055,84.5057768819788
8.4208,3.81785128156865,84.954494876076
8.4292,3.75935807598212,85.4108643767764
8.4376,3.7046325651194,85.8756384448568
8.446,3.65386874062351,86.3496454417107
8.4544,3.60729204557931,86.8337992215808
8.4628,3.56516468364031,87.3291110095304
8.4712,3.52779202948269,87.8367032981168
8.4796,3.49553040847481,88.3578261724717
8.488,3.46879658894712,88.8938765705235
8.4964,3.44807943028536,89.4464211084775
8.5048,3.43395426315926,90.0172232594894
8.5132,3.42710075708757,90.6082758765831
8.5216,3.42832527313667,91.2218403139242
8.53,3.43858903163726,91.8604937435058
8.5384,3.45904388393471,92.5271867143902
8.5468,3.4910781187187,93.225313596402
8.5552,3.5363756400113,93.9587993415279
8.5636,3.59699315037057,94.7322070565119
8.572,3.67546185094742,95.5508723100983
8.5804,3.77492292819826,96.4210720391184
8.5888,3.89931020771706,97.3502385659677
8.5972,4.05359957939031,98.3472328684369
8.6056,4.24415438225664,99.4226962216959
8.614,4.47921096798492,100.589506145106
8.6224,4.76957270076505,101.863371811665
8.6308,5.1296199172916,103.263616256513
8.6392,5.57880897743663,104.814207900985
8.6476,6.14394583789443,106.545120290919
8.656,6.86271679407716,108.494109080738
8.6644,7.78931468761558,110.708975509513
8.6728,9.00365752152931,113.25026643454
8.6812,10.6269462041123,116.193942386576
8.6896,12.8487199806894,119.632246482093
8.698,15.9752063503139,123.667105210105
8.7064,20.5171388970447,128.378641800677
8.7148,27.3463724858539,133.715655820231
8.7232,37.9392401203294,139.148346184812
8.7316,54.5168177140787,142.651427633162
8.74,78.6964857801502,138.382456617354
8.7484,104.362563540812,115.890398917253
8.7568,110.535485547329,75.7888808561166
8.7652,89.8481676121628,44.2425482635873
8.7736,63.2449032919116,33.8244018861421
8.782,43.4240467753995,35.2984409124943
8.7904,30.6011805833234,40.482046250022
8.7988,22.4109095779132,46.1149365469222
8.8072,17.0412052579644,51.2404207824427
8.8156,13.3964735690475,55.6833870878083
8.824,10.8386789921616,59.4979017434184
8.8324,8.99102919964094,62.7892203023474
8.8408,7.62470160197161,65.6606607326405
8.8492,6.59666265812065,68.2005886777047
8.8576,5.81539412299483,70.4818063282046
8.866,5.22167697157069,72.5643578021738
8.8744,4.77771951108361,74.4989372436896
8.8828,4.46118997867292,76.3301484899219
8.8912,4.26249446620744,78.0995580379912
8.8996,4.18475639948954,79.8487076475964
8.908,4.24694246708,81.622275185133
8.9164,4.49198496513735,83.4713231455475
8.9248,5.00449205789103,85.4554114897086
8.9332,5.94858761093731,87.6376308383846
8.9416,7.64821373510394,90.0476577941547
8.95,10.7392044531605,92.5127221718974
8.9584,16.2626905758732,94.00639726961
8.9668,24.2617453544652,91.1335696092231
8.9752,28.3953076921188,80.8675711438202
8.9836,22.9178778190112,71.8110416651751
8.992,15.493420398579,69.8003137405628
9.0004,10.5209249884176,71.0682734265172
9.0088,7.56560698202284,73.009777021128
9.0172,5.76789981942581,74.8693117982136
9.0256,4.61560871095342,76.5036132135495
9.034,3.83749439458809,77.9218872980531
9.0424,3.2877081405666,79.162115460139
9.0508,2.8842806559247,80.261007010511
9.0592,2.57888309848431,81.2482580045779
9.0676,2.34171775075173,82.1467856298528
9.076,2.1536644274571,82.974119884855
9.0844,2.0020160495821,83.743744250001
9.0928,1.87806379256386,84.4661491871426
9.1012,1.77567587214704,85.1496108601706
9.1096,1.69043153525765,85.800756270619
9.118,1.61907667886662,86.4249728784451
9.1264,1.55917200198018,87.0267074626064
9.1348,1.50885989663384,87.6096864643223
9.1432,1.46670658244886,88.1770804971735
9.1516,1.43159312712417,88.7316288962267
9.16,1.40263897735412,89.2757354504196
9.1684,1.37914759856542,89.811543208857
9.1768,1.36056748873815,90.3409940136816
9.1852,1.34646413761949,90.8658768683395
9.1936,1.33649998848439,91.3878681817204
9.202,1.33042044223723,91.9085661889805
9.2104,1.3280446138581,92.4295213407716
9.2188,1.32926002715958,92.9522641089362
9.2272,1.33402079148398,93.4783314356637
9.2356,1.34234909482758,94.0092929272407
9.244,1.35434010988704,94.5467778465492
9.2524,1.37017067436968,95.0925039823955
9.2608,1.39011240556427,95.6483095674202
9.2692,1.41455027702905,96.2161895847618
9.2776,1.44400816805138,96.7983380578343
9.286,1.47918355831367,97.3971982749709
9.2944,1.52099447516595,98.0155233854789
9.3028,1.57064315206315,98.656450446739
9.3112,1.629702846056,99.32359183906
9.3196,1.70023724067346,100.021149029709
9.328,1.78496639220117,100.75405497316
9.3364,1.88750018343218,101.528152928861
9.3448,2.01267125710762,102.350420936979
9.3532,2.16701698233949,103.229251977051
9.3616,2.35948854509379,104.174798327888
9.37,2.60251229894086,105.199380959236
9.3784,2.91360711943058,106.317941721453
9.3868,3.31789404319748,107.548455963357
9.3952,3.85205786377292,108.912074455506
9.4036,4.57068906252216,110.432402387095
9.412,5.556500687755,112.132450402923
9.4204,6.93659626613258,114.025688244963
9.4288,8.90694484926157,116.092639701325
9.4372,11.7625999432834,118.22335047325
9.4456,15.9072016224002,120.086336368217
9.454,21.7298366650513,120.879030293829
9.4624,29.0541219401903,119.080757488647
9.4708,35.9993745877804,113.029030624837
9.4792,38.9815858418405,103.347023239104
9.4876,36.3668614179949,94.0234646099888
9.496,30.5590980543647,88.2710591834551
9.5044,24.5423606089601,86.0193994772174
9.5128,19.6024039460883,85.8754594880057
9.5212,15.8654184171274,86.7301996124953
9.5296,13.0966347899795,87.9784578872584
9.538,11.0362113079246,89.3352497849286
9.5464,9.48133582964772,90.6775545268799
9.5548,8.28817525630357,91.9579774011108
9.5632,7.35743369135701,93.1631558268925
9.5716,6.62064621009507,94.294501684263
9.58,6.03018076465695,95.3594131102795
9.5884,5.55248634550437,96.3673244668669
9.5968,5.16364035108602,97.327997154133
9.6052,4.84642405865625,98.2508547147819
9.6136,4.58839839090593,99.144807904931
9.622,4.38064054179201,100.018313210004
9.6304,4.2169306563649,100.879549460007
9.6388,4.09326423318314,101.736666739047
9.6472,4.00762795217108,102.598098850618
9.6556,3.96002950799521,103.472953833727
9.664,3.95283162768047,104.371515510437
9.6724,3.99152972632062,105.305906088513
9.6808,4.08627478416677,106.290970440996
9.6892,4.25477120210086,107.345417031618
9.6976,4.52788791326329,108.493070040147
9.706,4.9609102036858,109.763300488824
9.7144,5.6569090655045,111.186554760225
9.7228,6.81549828856042,112.768356008678
9.7312,8.82120150727249,114.375962942575
9.7396,12.2639329624147,115.316959766395
9.748,16.9102337052604,113.488411440462
9.7564,18.6349983256477,107.705233692875
9.7648,15.0944999055189,103.561057215976
9.7732,11.1127209725336,103.429400355568
9.7816,8.66389271639832,104.93195468929
9.79,7.34375379061383,106.756418443954
9.7984,6.67043799745966,108.565346037597
9.8068,6.37685011752962,110.316725472597
9.8152,6.33011665789911,112.038567378687
9.8236,6.46744713917301,113.77191629406
9.832,6.76451762576494,115.558663568597
9.8404,7.22165322363757,117.440645181246
9.8488,7.85925247332849,119.461442740557
9.8572,8.71898713102314,121.668637776623
9.8656,9.87016046685322,124.11568116826
9.874,11.4226364700127,126.862285509662
9.8824,13.549970890172,129.970544105283
9.8908,16.5293830968594,133.489214807429
9.8992,20.8083032249262,137.40590740468
9.9076,27.1026483447569,141.514007111444
9.916,36.4788302929819,145.065843361533
9.9244,50.1081271736514,145.992191024666
9.9328,67.5894074120412,139.89507575548
9.9412,82.791594206528,121.942664497602
9.9496,84.6470451377783,96.1888755903149
9.958,72.1738928667722,76.327802111149
9.9664,55.8110618988511,67.9674017797593
9.9748,42.3612756161652,67.1315673979388
9.9832,32.8228561035894,69.4666955613893
9.9916,26.2945148985318,72.7418929524703
10,21.8035895012458,76.0679049829076
10.0084,17.4147016584592,78.0335856800217
10.0168,13.9498610066634,80.5581328892699
10.0252,11.3324619403476,83.3211019322754
10.0336,9.4339868412306,86.1235113499737
10.042,8.13262706994715,88.8538534280001
10.0504,7.33670733261098,91.4474384662742
10.0588,6.98487034655118,93.8503161342421
10.0672,7.02752404608074,95.9915638990166
10.0756,7.38954583978221,97.773859538894
10.084,7.92708474917749,99.1032130880132
10.0924,8.42420960263694,99.9637438556135
10.1008,8.67342201942739,100.477679035474
10.1092,8.58635504282014,100.862530184014
10.1176,8.21599783671186,101.313066995191
10.126,7.68236855848262,101.92906166035
10.1344,7.09582634542479,102.726813114161
10.1428,6.52809994319565,103.682100962722
10.1512,6.01641052576839,104.761977959864
10.1596,5.57636690298405,105.938755265402
10.168,5.21256939759156,107.193378047371
10.1764,4.92509819834621,108.51462575114
10.1848,4.71297510527964,109.897327586797
10.1932,4.5758796235345,111.340746180744
10.2016,4.51498282587987,112.847401012495
10.21,4.53339152978671,114.42230596896
10.2184,4.63646861178687,116.072527781804
10.2268,4.83217698989326,117.80697812572
10.2352,5.1315420381234,119.636373804998
10.2436,5.54931281397427,121.573318038966
10.252,6.10491327744231,123.632465838874
10.2604,6.82380696290318,125.83073493155
10.2688,7.73945556649771,128.187505397728
10.2772,8.89614326190807,130.72470436538
10.2856,10.3530812201742,133.466571392987
10.294,12.1904263210474,136.438692379993
10.3024,14.5181763257219,139.66546320885
10.3108,17.4893604513742,143.164262700219
10.3192,21.3194572109997,146.93277809524
10.3276,26.3140917412243,150.9220961995
10.336,32.9050212014564,154.980332024728
10.3444,41.6841797420548,158.736612362662
10.3528,53.3888105613459,161.372826703894
10.3612,68.6821857237079,161.22822934724
10.3696,87.3432685818532,155.354582335387
10.378,106.407494724253,139.924537695279
10.3864,118.527800681508,113.606924585873
10.3948,115.895355959078,82.862500106926
10.4032,99.3832724253338,59.0482581630403
10.4116,77.8844048117801,47.4223952531279
10.42,58.6682027859265,45.3618433131284
10.4284,44.0695197310748,48.379648261034
10.4368,33.7324728523746,53.3939610163906
10.4452,26.6332315006292,58.8286244238068
10.4536,21.8427206237064,63.9905577675055
10.462,18.6728980380686,68.6121694393048
10.4704,16.6413930174826,72.6118270959855
10.4788,15.4085080510176,75.9830404588086
10.4872,14.7252553000567,78.7473952784427
10.4956,14.3971794280248,80.9377838814383
10.504,14.2616334891174,82.5961841812227
10.5124,14.1761283795118,83.7782020732082
10.5208,14.0162230687526,84.5594175133187
10.5292,13.6812560510032,85.0391763237401
10.5376,13.1046776314188,85.3379636403188
10.546,12.2637149726802,85.5864625568539
10.5544,11.1825033048773,85.908127366505
10.5628,9.92521441926481,86.4008625507377
10.5712,8.58044593750669,87.1244825160633
10.5796,7.2422542381092,88.0979259579547
10.588,5.99403978924396,89.3055926437543
10.5964,4.89904744053972,90.7087914374289
10.6048,3.9977904230263,92.2577225215207
10.6132,3.31039480397918,93.900954221771
10.6216,2.84129240609613,95.5913722936652
10.63,2.58426625856581,97.2889831950519
10.6384,2.52674952210198,98.9615210335051
10.6468,2.65300277738053,100.583805059985
10.6552,2.94621384485437,102.136551500297
10.6636,3.38973696711576,103.605073385951
10.672,3.96771631994253,104.978093245763
10.6804,4.66530298299627,106.246760128119
10.6888,5.46862155956795,107.403888911822
10.6972,6.36459403150389,108.443405471558
10.7056,7.34069111086903,109.359969234628
10.714,8.38465553278854,110.148743884953
10.7224,9.48422527481339,110.805290890015
10.7308,10.6268750581184,111.325565619104
10.7392,11.7995895075567,111.70600033843
10.7476,12.9886793409578,111.943661522985
10.756,14.179651662557,112.036470417664
10.7644,15.3571458778531,111.983475560073
10.7728,16.5049471255673,111.785164144549
10.7812,17.6060887324521,111.443795899546
10.7896,18.6430534106653,110.963738973174
10.798,19.5980792167161,110.351782783382
10.8064,20.4535703485918,109.617398720572
10.8148,21.1926046553375,108.772917011651
10.8232,21.7995196847638,107.833588070753
10.8316,22.2605481309926,106.817500276327
10.84,22.5644631072867,105.745333974202
10.8484,22.7031855745681,104.639943631416
10.8568,22.6723023901798,103.52577563899
10.8652,22.4714453493071,102.428146574829
10.8736,22.104490025272,101.372423363971
10.882,21.5795477896772,100.383159981518
10.8904,20.9087434815851,99.4832526812949
10.8988,20.1077921417917,98.6931756273274
10.9072,19.1954078675135,98.0303509941644
10.9156,18.1925931831933,97.5086932526002
10.924,17.1218662063075,97.138348810835
10.9324,16.0064844215095,96.9256324072181
10.9408,14.8697185309914,96.8731435758222
10.9492,13.7342192079126,96.9800324183316
10.9576,12.621505868549,97.2423750988901
10.966,11.5515921224911,97.65361613575
10.9744,10.5427493270605,98.2050359935057
10.9828,9.61139899554875,98.8862074042993
10.9912,8.77211730818531,99.6854107724336
10.9996,8.03773063519187,100.589986538676
11.008,7.41947932568581,101.586609374415
11.0164,6.92722729822812,102.661474780573
11.0248,6.56969633672778,103.800392674108
11.0332,6.35470559869133,104.98878474081
11.0416,6.28939787408892,106.211582818102
11.05,6.38043381149528,107.453024605541
11.0584,6.63413283535109,108.696340987136
11.0668,7.05653386117385,109.923326792488
11.0752,7.65333897420301,111.113784889469
11.0836,8.42968743057724,112.244833744512
11.092,9.38968379017849,113.290073928255
11.1004,10.535570757153,114.218624625576
11.1088,11.8663933232856,114.994075855308
11.1172,13.3759482644498,115.57347030187
11.1256,15.049762594962,115.906552528102
11.134,16.8608256882863,115.935732569337
11.1424,18.7638783847958,115.597535077598
11.1508,20.688365113038,114.826745947034
11.1592,22.530884509876,113.56493010934
11.1676,24.1493640138925,111.775153118603
11.176,25.3632800547763,109.463883530387
11.1844,25.9663755989806,106.708108804596
11.1928,25.7583847582151,103.679962028206
11.2012,24.5968212550307,100.654237762212
11.2096,22.4570522604851,97.9820408121263
11.218,19.4741468777008,96.0245848789469
11.2264,15.937774553784,95.065073266315
11.2348,12.2323822972796,95.2371240807997
11.2432,8.74753639037342,96.5035768832337
11.2516,5.79963085926273,98.6897244124901
11.26,3.59295688304561,101.545858450273
11.2684,2.22123689312316,104.807515883967
11.2768,1.69299607760102,108.234960825993
11.2852,1.96246617816986,111.629765107485
11.2936,2.95488472773905,114.835341992822
11.302,4.58260991308934,117.729697079855
11.3104,6.75291131471227,120.216449919731
11.3188,9.36988866468937,122.217496931999
11.3272,12.3330596631167,123.668759283911
11.3356,15.5347694320344,124.51933659627
11.344,18.8581713659287,124.733735685926
11.3524,22.177184212951,124.296356459482
11.3608,25.3594278458151,123.216951319264
11.3692,28.2725341422043,121.535371774899
11.3776,30.7933703865489,119.323763193104
11.386,32.8187400551978,116.684689408828
11.3944,34.275368969244,113.744557428995
11.4028,35.1268235297849,110.642990118039
11.4112,35.3756360246839,107.520014778943
11.4196,35.0601607421111,104.503589287517
11.428,34.2470655624458,101.699800034228
11.4364,33.0213340391561,99.1871626322851
11.4448,31.4759116317171,97.0152701478164
11.4532,29.7027337230256,95.2070374526801
11.4616,27.7861269629066,93.7632609902679
11.47,25.7988202437193,92.6681656414404
11.4784,23.8002578926654,91.8948846312678
11.4868,21.8366377027841,91.4102135344957
11.4952,19.9420515141156,91.1783452929085
11.5036,18.1401959620843,91.1635576389677
11.512,16.4462635172376,91.331977225715
11.5204,14.8687650836225,91.6526085956519
11.5288,13.4111492856666,92.0978223436466
11.5372,12.07316364343,92.6434728456611
11.5456,10.8519528208949,93.2687807298613
11.554,9.74291641156503,93.9560798667912
11.5624,8.74036073657206,94.6904982362033
11.5708,7.837981867034,95.4596182005465
11.5792,7.02921479554498,96.253144220572
11.5876,6.30747911341309,97.0625938473959
11.596,5.66634632195505,97.8810196996653
11.6044,5.09964888541742,98.7027649733464
11.6128,4.60154671859215,99.5232519340984
11.6212,4.16656312168545,100.338801127259
11.6296,3.78959921335816,101.146478218114
11.638,3.46593358891922,101.94396510569
11.6464,3.19121214108385,102.729452008837
11.6548,2.9614316226616,103.501547455249
11.6632,2.77291951217261,104.259203418661
11.6716,2.62231198745671,105.001653189712
11.68,2.50653125638314,105.728359899103
11.6884,2.42276308847383,106.43897392015
11.6968,2.36843509850255,107.133297653677
11.7052,2.34119612379175,107.81125643927
11.7136,2.33889688899358,108.472874544045
11.722,2.3595720491228,109.11825535611
11.7304,2.40142363123441,109.747565058173
11.7388,2.46280584830999,110.361019180813
11.7472,2.54221122895445,110.958871538386
11.7556,2.63825798849106,111.541405136342
11.764,2.74967855740342,112.108924709955
11.7724,2.87530917920874,112.661750613237
11.7808,3.01408048987603,113.200213825484
11.7892,3.16500899348735,113.724651883017
11.7976,3.32718935301468,114.23540557686
11.806,3.49978742017959,114.732816284432
11.8144,3.68203393390798,115.217223825969
11.8228,3.87321882256478,115.688964755032
11.8312,4.07268605074467,116.148371007929
11.8396,4.27982895676364,116.595768849635
11.848,4.49408603206263,117.031478064365
11.8564,4.71493709845168,117.455811347738
11.8648,4.94189984347224,117.869073864723
11.8732,5.17452667813758,118.271562943594
11.8816,5.41240188493192,118.663567881129
11.89,5.65513902723266,119.045369838475
11.8984,5.90237859427791,119.417241810526
11.9068,6.15378585847409,119.779448654603
11.9152,6.40904892422702,120.132247166577
11.9236,6.66787694963312,120.475886194635
11.932,6.92999852428845,120.810606782512
11.9404,7.19516018819656,121.13664233545
11.9488,7.46312507829668,121.454218803293
11.9572,7.73367169050944,121.763554876104
11.9656,8.00659274642983,122.06486218851
11.974,8.28169415489592,122.358345529659
11.9824,8.55879405964495,122.644203056231
